# vsim -vopt -voptargs="+acc" -coverage -sva -c -do " log -r /* ;coverage save -onexit cov2;run -all; exit" -wlf wave_file2.wlf -l test1.log -sv_seed random work.top "+UVM_TESTNAME=incr_seqs" 
# Start time: 20:45:24 on Oct 12,2025
# ** Note: (vsim-3812) Design is being optimized...
# ** Warning: (vopt-10587) Some optimizations are turned off because the +acc switch is in effect. This will cause your simulation to run slowly. Please use -access/-debug to maintain needed visibility.
# ** Note: (vopt-143) Recognized 1 FSM in module "apb_controller(fast)".
# ** Note: (vopt-143) Recognized 2 FSMs in module "ahb(fast)".
# ** Note: (vsim-12126) Error and warning message counts have been restored: Errors=0, Warnings=1.
# //  Questa Sim-64
# //  Version 2022.1_2 linux_x86_64 Apr  2 2022
# //
# //  Copyright 1991-2022 Mentor Graphics Corporation
# //  All Rights Reserved.
# //
# //  QuestaSim and its associated documentation contain trade
# //  secrets and commercial or financial information that are the property of
# //  Mentor Graphics Corporation and are privileged, confidential,
# //  and exempt from disclosure under the Freedom of Information Act,
# //  5 U.S.C. Section 552. Furthermore, this information
# //  is prohibited from disclosure under the Trade Secrets Act,
# //  18 U.S.C. Section 1905.
# //
# Loading sv_std.std
# Loading work.apb_if(fast)
# Loading work.ahb_if(fast)
# Loading mtiUvm.uvm_pkg(fast)
# Loading work.test_pkg(fast)
# Loading mtiUvm.questa_uvm_pkg(fast)
# Loading work.top(fast)
# Loading work.ahb_if(fast__2)
# Loading work.apb_if(fast__2)
# Loading work.rtl_top(fast)
# Loading work.ahb(fast)
# Loading work.apb_controller(fast)
# Loading work.apb(fast)
# Loading /home/cad/eda/Mentor_Graphics/Questasim/questasim/uvm-1.1d/linux_x86_64/uvm_dpi.so
# ** Warning: (vsim-8634) Code was not compiled with coverage options.
# Sv_Seed = 1025460419
#  log -r /* 
# coverage save -onexit cov2
# run -all
# ----------------------------------------------------------------
# UVM-1.1d
# (C) 2007-2013 Mentor Graphics Corporation
# (C) 2007-2013 Cadence Design Systems, Inc.
# (C) 2006-2013 Synopsys, Inc.
# (C) 2011-2013 Cypress Semiconductor Corp.
# ----------------------------------------------------------------
# 
#   ***********       IMPORTANT RELEASE NOTES         ************
# 
#   You are using a version of the UVM library that has been compiled
#   with `UVM_NO_DEPRECATED undefined.
#   See http://www.eda.org/svdb/view.php?id=3313 for more details.
# 
#   You are using a version of the UVM library that has been compiled
#   with `UVM_OBJECT_MUST_HAVE_CONSTRUCTOR undefined.
#   See http://www.eda.org/svdb/view.php?id=3770 for more details.
# 
#       (Specify +UVM_NO_RELNOTES to turn off this notice)
# 
# UVM_INFO verilog_src/questa_uvm_pkg-1.2/src/questa_uvm_pkg.sv(277) @ 0: reporter [Questa UVM] QUESTA_UVM-1.2.3
# UVM_INFO verilog_src/questa_uvm_pkg-1.2/src/questa_uvm_pkg.sv(278) @ 0: reporter [Questa UVM]  questa_uvm::init(+struct)
# UVM_INFO @ 0: reporter [RNTST] Running test incr_seqs...
# UVM_INFO ../tb/env.sv(61) @ 0: uvm_test_top.env [env] APB monitor = {monh} 915 1 1074 @uvm_status_container@1 @uvm_report_handler@124 0 1 null @uvm_domain@2 { } @uvm_phase@3 null 0 0 @apb_agent@1 { {"monitor_port":@uvm_port_component__8@6} } { {@uvm_port_component__8@6:@uvm_port_component__8@6} } { } { } {uvm_test_top.env.apb_top.agnth.monh} @uvm_object_string_pool__1@55 0 {} 1 0 {uvm_component} {} {uvm_monitor} /top/in1 @apb_agent_config@1 @uvm_analysis_port__4@3 {apb_monitor}
# UVM_INFO @ 0: reporter [UVMTOP] UVM testbench topology:
# --------------------------------------------------------------------
# Name                         Type                        Size  Value
# --------------------------------------------------------------------
# uvm_test_top                 incr_seqs                   -     @479 
#   env                        env                         -     @495 
#     ahb_top                  ahb_agt_top                 -     @507 
#       agnth                  ahb_agent                   -     @743 
#         drvh                 ahb_driver                  -     @767 
#           rsp_port           uvm_analysis_port           -     @782 
#           seq_item_port      uvm_seq_item_pull_port      -     @774 
#         monh                 ahb_monitor                 -     @752 
#           monitor_port       uvm_analysis_port           -     @759 
#         seqrh                ahb_sequencer               -     @790 
#           rsp_export         uvm_analysis_export         -     @797 
#           seq_item_export    uvm_seq_item_pull_imp       -     @891 
#           arbitration_queue  array                       0     -    
#           lock_queue         array                       0     -    
#           num_last_reqs      integral                    32    'd1  
#           num_last_rsps      integral                    32    'd1  
#     apb_top                  apb_agt_top                 -     @518 
#       agnth                  apb_agent                   -     @906 
#         drvh                 apb_driver                  -     @930 
#           rsp_port           uvm_analysis_port           -     @945 
#           seq_item_port      uvm_seq_item_pull_port      -     @937 
#         monh                 apb_monitor                 -     @915 
#           monitor_port       uvm_analysis_port           -     @922 
#         seqrh                apb_sequencer               -     @953 
#           rsp_export         uvm_analysis_export         -     @960 
#           seq_item_export    uvm_seq_item_pull_imp       -     @1054
#           arbitration_queue  array                       0     -    
#           lock_queue         array                       0     -    
#           num_last_reqs      integral                    32    'd1  
#           num_last_rsps      integral                    32    'd1  
#     sb                       scoreboard                  -     @634 
#       ahb_fifo               uvm_tlm_analysis_fifo #(T)  -     @641 
#         analysis_export      uvm_analysis_imp            -     @680 
#         get_ap               uvm_analysis_port           -     @672 
#         get_peek_export      uvm_get_peek_imp            -     @656 
#         put_ap               uvm_analysis_port           -     @664 
#         put_export           uvm_put_imp                 -     @648 
#       apb_fifo               uvm_tlm_analysis_fifo #(T)  -     @688 
#         analysis_export      uvm_analysis_imp            -     @727 
#         get_ap               uvm_analysis_port           -     @719 
#         get_peek_export      uvm_get_peek_imp            -     @703 
#         put_ap               uvm_analysis_port           -     @711 
#         put_export           uvm_put_imp                 -     @695 
#     v_seqrh                  v_sequencer                 -     @525 
#       rsp_export             uvm_analysis_export         -     @532 
#       seq_item_export        uvm_seq_item_pull_imp       -     @626 
#       arbitration_queue      array                       0     -    
#       lock_queue             array                       0     -    
#       num_last_reqs          integral                    32    'd1  
#       num_last_rsps          integral                    32    'd1  
# --------------------------------------------------------------------
# 
# inside DEFAULT state                  10
# UVM_INFO ../ahb_top/ahb_seqs.sv(61) @ 30: uvm_test_top.env.ahb_top.agnth.seqrh@@seq2 [INCREMENT] Printing from seqs /n ----------------------------------------------------------------------------------------
# Name                           Type      Size  Value                                    
# ----------------------------------------------------------------------------------------
# req                            ahb_xtn   -     @1098                                    
#   begin_time                   time      64    30                                       
#   depth                        int       32    'd2                                      
#   parent sequence (name)       string    4     seq2                                     
#   parent sequence (full name)  string    41    uvm_test_top.env.ahb_top.agnth.seqrh.seq2
#   sequencer                    string    36    uvm_test_top.env.ahb_top.agnth.seqrh     
#   Haddr                        integral  32    'h840002de                               
#   Hwdata                       integral  32    'h63355db5                               
#   Hrdata                       integral  32    'h0                                      
#   Hsize                        integral  3     'h0                                      
#   Htrans                       integral  3     'h2                                      
#   Hreadyout                    integral  1     'h0                                      
#   Hreadyin                     integral  1     'h1                                      
#   Hwrite                       integral  1     'h1                                      
#   Hburst                       integral  3     'd1                                      
#   Length                       integral  10    631                                      
# ----------------------------------------------------------------------------------------
# 
# UVM_INFO ../ahb_top/ahb_driver.sv(49) @ 50: uvm_test_top.env.ahb_top.agnth.drvh [ahb_driver] this is the driver
# ----------------------------------------------------------------------------------------
# Name                           Type      Size  Value                                    
# ----------------------------------------------------------------------------------------
# req                            ahb_xtn   -     @1098                                    
#   begin_time                   time      64    30                                       
#   depth                        int       32    'd2                                      
#   parent sequence (name)       string    4     seq2                                     
#   parent sequence (full name)  string    41    uvm_test_top.env.ahb_top.agnth.seqrh.seq2
#   sequencer                    string    36    uvm_test_top.env.ahb_top.agnth.seqrh     
#   Haddr                        integral  32    'h840002de                               
#   Hwdata                       integral  32    'h63355db5                               
#   Hrdata                       integral  32    'h0                                      
#   Hsize                        integral  3     'h0                                      
#   Htrans                       integral  3     'h2                                      
#   Hreadyout                    integral  1     'h0                                      
#   Hreadyin                     integral  1     'h1                                      
#   Hwrite                       integral  1     'h1                                      
#   Hburst                       integral  3     'd1                                      
#   Length                       integral  10    631                                      
# ----------------------------------------------------------------------------------------
# UVM_INFO ../ahb_top/ahb_seqs.sv(77) @ 50: uvm_test_top.env.ahb_top.agnth.seqrh@@seq2 [INCREMENT] Printing from seqs /n ----------------------------------------------------------------------------------------
# Name                           Type      Size  Value                                    
# ----------------------------------------------------------------------------------------
# req                            ahb_xtn   -     @1098                                    
#   begin_time                   time      64    50                                       
#   end_time                     time      64    50                                       
#   depth                        int       32    'd2                                      
#   parent sequence (name)       string    4     seq2                                     
#   parent sequence (full name)  string    41    uvm_test_top.env.ahb_top.agnth.seqrh.seq2
#   sequencer                    string    36    uvm_test_top.env.ahb_top.agnth.seqrh     
#   Haddr                        integral  32    'h840002df                               
#   Hwdata                       integral  32    'h6284fb3d                               
#   Hrdata                       integral  32    'h0                                      
#   Hsize                        integral  3     'h0                                      
#   Htrans                       integral  3     'h3                                      
#   Hreadyout                    integral  1     'h0                                      
#   Hreadyin                     integral  1     'h1                                      
#   Hwrite                       integral  1     'h1                                      
#   Hburst                       integral  3     'd1                                      
#   Length                       integral  10    562                                      
# ----------------------------------------------------------------------------------------
# 
# Width = 32, size 8 bits
#                   70BYTE0_endian1
#                   70BYTE2_endian1
# UVM_INFO ../ahb_top/ahb_driver.sv(49) @ 70: uvm_test_top.env.ahb_top.agnth.drvh [ahb_driver] this is the driver
# ----------------------------------------------------------------------------------------
# Name                           Type      Size  Value                                    
# ----------------------------------------------------------------------------------------
# req                            ahb_xtn   -     @1098                                    
#   begin_time                   time      64    50                                       
#   end_time                     time      64    50                                       
#   depth                        int       32    'd2                                      
#   parent sequence (name)       string    4     seq2                                     
#   parent sequence (full name)  string    41    uvm_test_top.env.ahb_top.agnth.seqrh.seq2
#   sequencer                    string    36    uvm_test_top.env.ahb_top.agnth.seqrh     
#   Haddr                        integral  32    'h840002df                               
#   Hwdata                       integral  32    'h6284fb3d                               
#   Hrdata                       integral  32    'h0                                      
#   Hsize                        integral  3     'h0                                      
#   Htrans                       integral  3     'h3                                      
#   Hreadyout                    integral  1     'h0                                      
#   Hreadyin                     integral  1     'h1                                      
#   Hwrite                       integral  1     'h1                                      
#   Hburst                       integral  3     'd1                                      
#   Length                       integral  10    562                                      
# ----------------------------------------------------------------------------------------
# UVM_INFO ../ahb_top/ahb_monitor.sv(58) @ 70: uvm_test_top.env.ahb_top.agnth.monh [ahb_monitor] this is the monitor
# ---------------------------------------
# Name         Type      Size  Value     
# ---------------------------------------
# xtn          ahb_xtn   -     @1174     
#   Haddr      integral  32    'h840002de
#   Hwdata     integral  32    'h63355db5
#   Hrdata     integral  32    'h0       
#   Hsize      integral  3     'h0       
#   Htrans     integral  3     'h2       
#   Hreadyout  integral  1     'h0       
#   Hreadyin   integral  1     'h1       
#   Hwrite     integral  1     'h1       
#   Hburst     integral  3     'd0       
#   Length     integral  10    'd0       
# ---------------------------------------
# UVM_INFO ../ahb_top/ahb_seqs.sv(77) @ 70: uvm_test_top.env.ahb_top.agnth.seqrh@@seq2 [INCREMENT] Printing from seqs /n ----------------------------------------------------------------------------------------
# Name                           Type      Size  Value                                    
# ----------------------------------------------------------------------------------------
# req                            ahb_xtn   -     @1098                                    
#   begin_time                   time      64    70                                       
#   end_time                     time      64    70                                       
#   depth                        int       32    'd2                                      
#   parent sequence (name)       string    4     seq2                                     
#   parent sequence (full name)  string    41    uvm_test_top.env.ahb_top.agnth.seqrh.seq2
#   sequencer                    string    36    uvm_test_top.env.ahb_top.agnth.seqrh     
#   Haddr                        integral  32    'h840002e0                               
#   Hwdata                       integral  32    'hb9e73f5c                               
#   Hrdata                       integral  32    'h0                                      
#   Hsize                        integral  3     'h0                                      
#   Htrans                       integral  3     'h3                                      
#   Hreadyout                    integral  1     'h0                                      
#   Hreadyin                     integral  1     'h1                                      
#   Hwrite                       integral  1     'h1                                      
#   Hburst                       integral  3     'd1                                      
#   Length                       integral  10    'd242                                    
# ----------------------------------------------------------------------------------------
# 
# Width = 32, size 8 bits
#                  110BYTE2_endian1
#                  110BYTE3_endian1
# UVM_INFO ../ahb_top/ahb_monitor.sv(58) @ 110: uvm_test_top.env.ahb_top.agnth.monh [ahb_monitor] this is the monitor
# ---------------------------------------
# Name         Type      Size  Value     
# ---------------------------------------
# xtn          ahb_xtn   -     @1179     
#   Haddr      integral  32    'h840002df
#   Hwdata     integral  32    'h6284fb3d
#   Hrdata     integral  32    'h0       
#   Hsize      integral  3     'h0       
#   Htrans     integral  3     'h3       
#   Hreadyout  integral  1     'h0       
#   Hreadyin   integral  1     'h1       
#   Hwrite     integral  1     'h1       
#   Hburst     integral  3     'd0       
#   Length     integral  10    'd0       
# ---------------------------------------
# UVM_INFO ../ahb_top/ahb_driver.sv(49) @ 110: uvm_test_top.env.ahb_top.agnth.drvh [ahb_driver] this is the driver
# ----------------------------------------------------------------------------------------
# Name                           Type      Size  Value                                    
# ----------------------------------------------------------------------------------------
# req                            ahb_xtn   -     @1098                                    
#   begin_time                   time      64    70                                       
#   end_time                     time      64    70                                       
#   depth                        int       32    'd2                                      
#   parent sequence (name)       string    4     seq2                                     
#   parent sequence (full name)  string    41    uvm_test_top.env.ahb_top.agnth.seqrh.seq2
#   sequencer                    string    36    uvm_test_top.env.ahb_top.agnth.seqrh     
#   Haddr                        integral  32    'h840002e0                               
#   Hwdata                       integral  32    'hb9e73f5c                               
#   Hrdata                       integral  32    'h0                                      
#   Hsize                        integral  3     'h0                                      
#   Htrans                       integral  3     'h3                                      
#   Hreadyout                    integral  1     'h0                                      
#   Hreadyin                     integral  1     'h1                                      
#   Hwrite                       integral  1     'h1                                      
#   Hburst                       integral  3     'd1                                      
#   Length                       integral  10    'd242                                    
# ----------------------------------------------------------------------------------------
# UVM_INFO ../ahb_top/ahb_seqs.sv(77) @ 110: uvm_test_top.env.ahb_top.agnth.seqrh@@seq2 [INCREMENT] Printing from seqs /n ----------------------------------------------------------------------------------------
# Name                           Type      Size  Value                                    
# ----------------------------------------------------------------------------------------
# req                            ahb_xtn   -     @1098                                    
#   begin_time                   time      64    110                                      
#   end_time                     time      64    110                                      
#   depth                        int       32    'd2                                      
#   parent sequence (name)       string    4     seq2                                     
#   parent sequence (full name)  string    41    uvm_test_top.env.ahb_top.agnth.seqrh.seq2
#   sequencer                    string    36    uvm_test_top.env.ahb_top.agnth.seqrh     
#   Haddr                        integral  32    'h840002e1                               
#   Hwdata                       integral  32    'hd5d2cf31                               
#   Hrdata                       integral  32    'h0                                      
#   Hsize                        integral  3     'h0                                      
#   Htrans                       integral  3     'h3                                      
#   Hreadyout                    integral  1     'h0                                      
#   Hreadyin                     integral  1     'h1                                      
#   Hwrite                       integral  1     'h1                                      
#   Hburst                       integral  3     'd1                                      
#   Length                       integral  10    'd426                                    
# ----------------------------------------------------------------------------------------
# 
# Width = 32, size 8 bits
#                  150BYTE3_endian1
#                  150BYTE0_endian1
# UVM_INFO ../ahb_top/ahb_monitor.sv(58) @ 150: uvm_test_top.env.ahb_top.agnth.monh [ahb_monitor] this is the monitor
# ---------------------------------------
# Name         Type      Size  Value     
# ---------------------------------------
# xtn          ahb_xtn   -     @1183     
#   Haddr      integral  32    'h840002e0
#   Hwdata     integral  32    'hb9e73f5c
#   Hrdata     integral  32    'h0       
#   Hsize      integral  3     'h0       
#   Htrans     integral  3     'h3       
#   Hreadyout  integral  1     'h0       
#   Hreadyin   integral  1     'h1       
#   Hwrite     integral  1     'h1       
#   Hburst     integral  3     'd0       
#   Length     integral  10    'd0       
# ---------------------------------------
# UVM_INFO ../apb_top/apb_monitor.sv(55) @ 150: uvm_test_top.env.apb_top.agnth.monh [apb_monitor] this is the monitor
# --------------------------------------
# Name       Type      Size  Value      
# --------------------------------------
# xtn        apb_xtn   -     @1083      
#   Paddr    integral  32    'h840002df 
#   Penable  integral  1     'dX        
#   Pwrite   integral  1     1          
#   Pselx    integral  4     'd2        
#   Prdata   integral  32    'h0xxxxxxxx
#   Pwdata   integral  32    'h62       
# --------------------------------------
# UVM_INFO ../ahb_top/ahb_driver.sv(49) @ 150: uvm_test_top.env.ahb_top.agnth.drvh [ahb_driver] this is the driver
# ----------------------------------------------------------------------------------------
# Name                           Type      Size  Value                                    
# ----------------------------------------------------------------------------------------
# req                            ahb_xtn   -     @1098                                    
#   begin_time                   time      64    110                                      
#   end_time                     time      64    110                                      
#   depth                        int       32    'd2                                      
#   parent sequence (name)       string    4     seq2                                     
#   parent sequence (full name)  string    41    uvm_test_top.env.ahb_top.agnth.seqrh.seq2
#   sequencer                    string    36    uvm_test_top.env.ahb_top.agnth.seqrh     
#   Haddr                        integral  32    'h840002e1                               
#   Hwdata                       integral  32    'hd5d2cf31                               
#   Hrdata                       integral  32    'h0                                      
#   Hsize                        integral  3     'h0                                      
#   Htrans                       integral  3     'h3                                      
#   Hreadyout                    integral  1     'h0                                      
#   Hreadyin                     integral  1     'h1                                      
#   Hwrite                       integral  1     'h1                                      
#   Hburst                       integral  3     'd1                                      
#   Length                       integral  10    'd426                                    
# ----------------------------------------------------------------------------------------
# UVM_INFO ../tb/scoreboard.sv(102) @ 150: uvm_test_top.env.sb [scoreboard] addr_matched
# UVM_INFO ../ahb_top/ahb_seqs.sv(77) @ 150: uvm_test_top.env.ahb_top.agnth.seqrh@@seq2 [INCREMENT] Printing from seqs /n ----------------------------------------------------------------------------------------
# Name                           Type      Size  Value                                    
# ----------------------------------------------------------------------------------------
# req                            ahb_xtn   -     @1098                                    
#   begin_time                   time      64    150                                      
#   end_time                     time      64    150                                      
#   depth                        int       32    'd2                                      
#   parent sequence (name)       string    4     seq2                                     
#   parent sequence (full name)  string    41    uvm_test_top.env.ahb_top.agnth.seqrh.seq2
#   sequencer                    string    36    uvm_test_top.env.ahb_top.agnth.seqrh     
#   Haddr                        integral  32    'h840002e2                               
#   Hwdata                       integral  32    'he9ad5bdd                               
#   Hrdata                       integral  32    'h0                                      
#   Hsize                        integral  3     'h0                                      
#   Htrans                       integral  3     'h3                                      
#   Hreadyout                    integral  1     'h0                                      
#   Hreadyin                     integral  1     'h1                                      
#   Hwrite                       integral  1     'h1                                      
#   Hburst                       integral  3     'd1                                      
#   Length                       integral  10    573                                      
# ----------------------------------------------------------------------------------------
# 
# Width = 32, size 8 bits
#                  190BYTE0_endian1
#                  190BYTE1_endian1
# UVM_INFO ../ahb_top/ahb_monitor.sv(58) @ 190: uvm_test_top.env.ahb_top.agnth.monh [ahb_monitor] this is the monitor
# ---------------------------------------
# Name         Type      Size  Value     
# ---------------------------------------
# xtn          ahb_xtn   -     @1187     
#   Haddr      integral  32    'h840002e1
#   Hwdata     integral  32    'hd5d2cf31
#   Hrdata     integral  32    'h0       
#   Hsize      integral  3     'h0       
#   Htrans     integral  3     'h3       
#   Hreadyout  integral  1     'h0       
#   Hreadyin   integral  1     'h1       
#   Hwrite     integral  1     'h1       
#   Hburst     integral  3     'd0       
#   Length     integral  10    'd0       
# ---------------------------------------
# UVM_INFO ../apb_top/apb_monitor.sv(55) @ 190: uvm_test_top.env.apb_top.agnth.monh [apb_monitor] this is the monitor
# --------------------------------------
# Name       Type      Size  Value      
# --------------------------------------
# xtn        apb_xtn   -     @1191      
#   Paddr    integral  32    'h840002e0 
#   Penable  integral  1     'dX        
#   Pwrite   integral  1     1          
#   Pselx    integral  4     'd2        
#   Prdata   integral  32    'h0xxxxxxxx
#   Pwdata   integral  32    'h5c       
# --------------------------------------
# UVM_INFO ../ahb_top/ahb_driver.sv(49) @ 190: uvm_test_top.env.ahb_top.agnth.drvh [ahb_driver] this is the driver
# ----------------------------------------------------------------------------------------
# Name                           Type      Size  Value                                    
# ----------------------------------------------------------------------------------------
# req                            ahb_xtn   -     @1098                                    
#   begin_time                   time      64    150                                      
#   end_time                     time      64    150                                      
#   depth                        int       32    'd2                                      
#   parent sequence (name)       string    4     seq2                                     
#   parent sequence (full name)  string    41    uvm_test_top.env.ahb_top.agnth.seqrh.seq2
#   sequencer                    string    36    uvm_test_top.env.ahb_top.agnth.seqrh     
#   Haddr                        integral  32    'h840002e2                               
#   Hwdata                       integral  32    'he9ad5bdd                               
#   Hrdata                       integral  32    'h0                                      
#   Hsize                        integral  3     'h0                                      
#   Htrans                       integral  3     'h3                                      
#   Hreadyout                    integral  1     'h0                                      
#   Hreadyin                     integral  1     'h1                                      
#   Hwrite                       integral  1     'h1                                      
#   Hburst                       integral  3     'd1                                      
#   Length                       integral  10    573                                      
# ----------------------------------------------------------------------------------------
# UVM_INFO ../tb/scoreboard.sv(102) @ 190: uvm_test_top.env.sb [scoreboard] addr_matched
# UVM_INFO ../ahb_top/ahb_seqs.sv(77) @ 190: uvm_test_top.env.ahb_top.agnth.seqrh@@seq2 [INCREMENT] Printing from seqs /n ----------------------------------------------------------------------------------------
# Name                           Type      Size  Value                                    
# ----------------------------------------------------------------------------------------
# req                            ahb_xtn   -     @1098                                    
#   begin_time                   time      64    190                                      
#   end_time                     time      64    190                                      
#   depth                        int       32    'd2                                      
#   parent sequence (name)       string    4     seq2                                     
#   parent sequence (full name)  string    41    uvm_test_top.env.ahb_top.agnth.seqrh.seq2
#   sequencer                    string    36    uvm_test_top.env.ahb_top.agnth.seqrh     
#   Haddr                        integral  32    'h840002e3                               
#   Hwdata                       integral  32    'h1637bc0e                               
#   Hrdata                       integral  32    'h0                                      
#   Hsize                        integral  3     'h0                                      
#   Htrans                       integral  3     'h3                                      
#   Hreadyout                    integral  1     'h0                                      
#   Hreadyin                     integral  1     'h1                                      
#   Hwrite                       integral  1     'h1                                      
#   Hburst                       integral  3     'd1                                      
#   Length                       integral  10    964                                      
# ----------------------------------------------------------------------------------------
# 
# Width = 32, size 8 bits
#                  230BYTE1_endian1
#                  230BYTE2_endian1
# UVM_INFO ../ahb_top/ahb_monitor.sv(58) @ 230: uvm_test_top.env.ahb_top.agnth.monh [ahb_monitor] this is the monitor
# ---------------------------------------
# Name         Type      Size  Value     
# ---------------------------------------
# xtn          ahb_xtn   -     @1195     
#   Haddr      integral  32    'h840002e2
#   Hwdata     integral  32    'he9ad5bdd
#   Hrdata     integral  32    'h0       
#   Hsize      integral  3     'h0       
#   Htrans     integral  3     'h3       
#   Hreadyout  integral  1     'h0       
#   Hreadyin   integral  1     'h1       
#   Hwrite     integral  1     'h1       
#   Hburst     integral  3     'd0       
#   Length     integral  10    'd0       
# ---------------------------------------
# UVM_INFO ../apb_top/apb_monitor.sv(55) @ 230: uvm_test_top.env.apb_top.agnth.monh [apb_monitor] this is the monitor
# --------------------------------------
# Name       Type      Size  Value      
# --------------------------------------
# xtn        apb_xtn   -     @1199      
#   Paddr    integral  32    'h840002e1 
#   Penable  integral  1     'dX        
#   Pwrite   integral  1     1          
#   Pselx    integral  4     'd2        
#   Prdata   integral  32    'h0xxxxxxxx
#   Pwdata   integral  32    'hcf       
# --------------------------------------
# UVM_INFO ../ahb_top/ahb_driver.sv(49) @ 230: uvm_test_top.env.ahb_top.agnth.drvh [ahb_driver] this is the driver
# ----------------------------------------------------------------------------------------
# Name                           Type      Size  Value                                    
# ----------------------------------------------------------------------------------------
# req                            ahb_xtn   -     @1098                                    
#   begin_time                   time      64    190                                      
#   end_time                     time      64    190                                      
#   depth                        int       32    'd2                                      
#   parent sequence (name)       string    4     seq2                                     
#   parent sequence (full name)  string    41    uvm_test_top.env.ahb_top.agnth.seqrh.seq2
#   sequencer                    string    36    uvm_test_top.env.ahb_top.agnth.seqrh     
#   Haddr                        integral  32    'h840002e3                               
#   Hwdata                       integral  32    'h1637bc0e                               
#   Hrdata                       integral  32    'h0                                      
#   Hsize                        integral  3     'h0                                      
#   Htrans                       integral  3     'h3                                      
#   Hreadyout                    integral  1     'h0                                      
#   Hreadyin                     integral  1     'h1                                      
#   Hwrite                       integral  1     'h1                                      
#   Hburst                       integral  3     'd1                                      
#   Length                       integral  10    964                                      
# ----------------------------------------------------------------------------------------
# UVM_INFO ../tb/scoreboard.sv(102) @ 230: uvm_test_top.env.sb [scoreboard] addr_matched
# UVM_INFO ../ahb_top/ahb_seqs.sv(77) @ 230: uvm_test_top.env.ahb_top.agnth.seqrh@@seq2 [INCREMENT] Printing from seqs /n ----------------------------------------------------------------------------------------
# Name                           Type      Size  Value                                    
# ----------------------------------------------------------------------------------------
# req                            ahb_xtn   -     @1098                                    
#   begin_time                   time      64    230                                      
#   end_time                     time      64    230                                      
#   depth                        int       32    'd2                                      
#   parent sequence (name)       string    4     seq2                                     
#   parent sequence (full name)  string    41    uvm_test_top.env.ahb_top.agnth.seqrh.seq2
#   sequencer                    string    36    uvm_test_top.env.ahb_top.agnth.seqrh     
#   Haddr                        integral  32    'h840002e4                               
#   Hwdata                       integral  32    'hcbdb9a21                               
#   Hrdata                       integral  32    'h0                                      
#   Hsize                        integral  3     'h0                                      
#   Htrans                       integral  3     'h3                                      
#   Hreadyout                    integral  1     'h0                                      
#   Hreadyin                     integral  1     'h1                                      
#   Hwrite                       integral  1     'h1                                      
#   Hburst                       integral  3     'd1                                      
#   Length                       integral  10    781                                      
# ----------------------------------------------------------------------------------------
# 
# Width = 32, size 8 bits
#                  270BYTE2_endian1
#                  270BYTE3_endian1
# UVM_INFO ../ahb_top/ahb_monitor.sv(58) @ 270: uvm_test_top.env.ahb_top.agnth.monh [ahb_monitor] this is the monitor
# ---------------------------------------
# Name         Type      Size  Value     
# ---------------------------------------
# xtn          ahb_xtn   -     @1203     
#   Haddr      integral  32    'h840002e3
#   Hwdata     integral  32    'h1637bc0e
#   Hrdata     integral  32    'h0       
#   Hsize      integral  3     'h0       
#   Htrans     integral  3     'h3       
#   Hreadyout  integral  1     'h0       
#   Hreadyin   integral  1     'h1       
#   Hwrite     integral  1     'h1       
#   Hburst     integral  3     'd0       
#   Length     integral  10    'd0       
# ---------------------------------------
# UVM_INFO ../apb_top/apb_monitor.sv(55) @ 270: uvm_test_top.env.apb_top.agnth.monh [apb_monitor] this is the monitor
# --------------------------------------
# Name       Type      Size  Value      
# --------------------------------------
# xtn        apb_xtn   -     @1207      
#   Paddr    integral  32    'h840002e2 
#   Penable  integral  1     'dX        
#   Pwrite   integral  1     1          
#   Pselx    integral  4     'd2        
#   Prdata   integral  32    'h0xxxxxxxx
#   Pwdata   integral  32    'had       
# --------------------------------------
# UVM_INFO ../ahb_top/ahb_driver.sv(49) @ 270: uvm_test_top.env.ahb_top.agnth.drvh [ahb_driver] this is the driver
# ----------------------------------------------------------------------------------------
# Name                           Type      Size  Value                                    
# ----------------------------------------------------------------------------------------
# req                            ahb_xtn   -     @1098                                    
#   begin_time                   time      64    230                                      
#   end_time                     time      64    230                                      
#   depth                        int       32    'd2                                      
#   parent sequence (name)       string    4     seq2                                     
#   parent sequence (full name)  string    41    uvm_test_top.env.ahb_top.agnth.seqrh.seq2
#   sequencer                    string    36    uvm_test_top.env.ahb_top.agnth.seqrh     
#   Haddr                        integral  32    'h840002e4                               
#   Hwdata                       integral  32    'hcbdb9a21                               
#   Hrdata                       integral  32    'h0                                      
#   Hsize                        integral  3     'h0                                      
#   Htrans                       integral  3     'h3                                      
#   Hreadyout                    integral  1     'h0                                      
#   Hreadyin                     integral  1     'h1                                      
#   Hwrite                       integral  1     'h1                                      
#   Hburst                       integral  3     'd1                                      
#   Length                       integral  10    781                                      
# ----------------------------------------------------------------------------------------
# UVM_INFO ../tb/scoreboard.sv(102) @ 270: uvm_test_top.env.sb [scoreboard] addr_matched
# UVM_INFO ../ahb_top/ahb_seqs.sv(92) @ 270: uvm_test_top.env.ahb_top.agnth.seqrh@@seq2 [INCREMENT] Printing from seqs /n ----------------------------------------------------------------------------------------
# Name                           Type      Size  Value                                    
# ----------------------------------------------------------------------------------------
# req                            ahb_xtn   -     @1098                                    
#   begin_time                   time      64    270                                      
#   end_time                     time      64    270                                      
#   depth                        int       32    'd2                                      
#   parent sequence (name)       string    4     seq2                                     
#   parent sequence (full name)  string    41    uvm_test_top.env.ahb_top.agnth.seqrh.seq2
#   sequencer                    string    36    uvm_test_top.env.ahb_top.agnth.seqrh     
#   Haddr                        integral  32    'h840002e4                               
#   Hwdata                       integral  32    'hc4cee637                               
#   Hrdata                       integral  32    'h0                                      
#   Hsize                        integral  3     'h0                                      
#   Htrans                       integral  3     'h0                                      
#   Hreadyout                    integral  1     'h0                                      
#   Hreadyin                     integral  1     'h1                                      
#   Hwrite                       integral  1     'h1                                      
#   Hburst                       integral  3     'd1                                      
#   Length                       integral  10    'd292                                    
# ----------------------------------------------------------------------------------------
# 
#                  310BYTE3_endian1
#                  310BYTE0_endian1
# UVM_INFO ../apb_top/apb_monitor.sv(55) @ 310: uvm_test_top.env.apb_top.agnth.monh [apb_monitor] this is the monitor
# --------------------------------------
# Name       Type      Size  Value      
# --------------------------------------
# xtn        apb_xtn   -     @1215      
#   Paddr    integral  32    'h840002e3 
#   Penable  integral  1     'dX        
#   Pwrite   integral  1     1          
#   Pselx    integral  4     'd2        
#   Prdata   integral  32    'h0xxxxxxxx
#   Pwdata   integral  32    'h16       
# --------------------------------------
# UVM_INFO ../ahb_top/ahb_driver.sv(49) @ 310: uvm_test_top.env.ahb_top.agnth.drvh [ahb_driver] this is the driver
# ----------------------------------------------------------------------------------------
# Name                           Type      Size  Value                                    
# ----------------------------------------------------------------------------------------
# req                            ahb_xtn   -     @1098                                    
#   begin_time                   time      64    270                                      
#   end_time                     time      64    270                                      
#   depth                        int       32    'd2                                      
#   parent sequence (name)       string    4     seq2                                     
#   parent sequence (full name)  string    41    uvm_test_top.env.ahb_top.agnth.seqrh.seq2
#   sequencer                    string    36    uvm_test_top.env.ahb_top.agnth.seqrh     
#   Haddr                        integral  32    'h840002e4                               
#   Hwdata                       integral  32    'hc4cee637                               
#   Hrdata                       integral  32    'h0                                      
#   Hsize                        integral  3     'h0                                      
#   Htrans                       integral  3     'h0                                      
#   Hreadyout                    integral  1     'h0                                      
#   Hreadyin                     integral  1     'h1                                      
#   Hwrite                       integral  1     'h1                                      
#   Hburst                       integral  3     'd1                                      
#   Length                       integral  10    'd292                                    
# ----------------------------------------------------------------------------------------
# UVM_INFO ../tb/scoreboard.sv(102) @ 310: uvm_test_top.env.sb [scoreboard] addr_matched
# UVM_INFO ../apb_top/apb_monitor.sv(55) @ 350: uvm_test_top.env.apb_top.agnth.monh [apb_monitor] this is the monitor
# --------------------------------------
# Name       Type      Size  Value      
# --------------------------------------
# xtn        apb_xtn   -     @1219      
#   Paddr    integral  32    'h840002e4 
#   Penable  integral  1     'dX        
#   Pwrite   integral  1     1          
#   Pselx    integral  4     'd2        
#   Prdata   integral  32    'h0xxxxxxxx
#   Pwdata   integral  32    'h21       
# --------------------------------------
# UVM_INFO ../tb/scoreboard.sv(102) @ 350: uvm_test_top.env.sb [scoreboard] addr_matched
# UVM_INFO ../apb_top/apb_monitor.sv(55) @ 390: uvm_test_top.env.apb_top.agnth.monh [apb_monitor] this is the monitor
# --------------------------------------
# Name       Type      Size  Value      
# --------------------------------------
# xtn        apb_xtn   -     @1224      
#   Paddr    integral  32    'h840002e4 
#   Penable  integral  1     'dX        
#   Pwrite   integral  1     'd0        
#   Pselx    integral  4     'd0        
#   Prdata   integral  32    'h0        
#   Pwdata   integral  32    'h0xxxxxxxx
# --------------------------------------
# UVM_INFO verilog_src/uvm-1.1d/src/base/uvm_objection.svh(1267) @ 510: reporter [TEST_DONE] 'run' phase is ready to proceed to the 'extract' phase
# 
# --- UVM Report Summary ---
# 
# ** Report counts by severity
# UVM_INFO :   41
# UVM_WARNING :    0
# UVM_ERROR :    0
# UVM_FATAL :    0
# ** Report counts by id
# [INCREMENT]     8
# [Questa UVM]     2
# [RNTST]     1
# [TEST_DONE]     1
# [UVMTOP]     1
# [ahb_driver]     8
# [ahb_monitor]     6
# [apb_monitor]     7
# [env]     1
# [scoreboard]     6
# ** Note: $finish    : /home/cad/eda/Mentor_Graphics/Questasim/questasim/linux_x86_64/../verilog_src/uvm-1.1d/src/base/uvm_root.svh(430)
#    Time: 510 ns  Iteration: 54  Instance: /top
# Saving coverage database on exit...
# End time: 20:45:28 on Oct 12,2025, Elapsed time: 0:00:04
# Errors: 0, Warnings: 2
